fsw	V(in)	V(out)	I(V1)	I(V2)
2.000000000000000e+002	1.000000e+000	1.900000e+000	-1.809450e-006	7.069500e-007
7.000000000000000e+002	1.000000e+000	1.900000e+000	-6.333075e-006	2.744325e-006
1.200000000000000e+003	1.000000e+000	1.900000e+000	-1.085670e-005	4.781700e-006
1.700000000000000e+003	1.000000e+000	1.900000e+000	-1.538032e-005	6.819075e-006
2.200000000000000e+003	1.000000e+000	1.900000e+000	-1.990395e-005	8.856450e-006
2.700000000000000e+003	1.000000e+000	1.900000e+000	-2.442757e-005	1.089382e-005
3.200000000000000e+003	1.000000e+000	1.900000e+000	-2.895119e-005	1.293119e-005
3.700000000000000e+003	1.000000e+000	1.900000e+000	-3.347472e-005	1.496852e-005
4.200000000000000e+003	1.000000e+000	1.900000e+000	-3.799785e-005	1.700565e-005
4.700000000000000e+003	1.000000e+000	1.900000e+000	-4.251973e-005	1.904215e-005
5.200000000000000e+003	1.000000e+000	1.900000e+000	-4.703858e-005	2.107714e-005
5.700000000000000e+003	1.000000e+000	1.900000e+000	-5.155139e-005	2.310911e-005
6.200000000000000e+003	1.000000e+000	1.900000e+000	-5.605374e-005	2.513585e-005
6.700000000000000e+003	1.000000e+000	1.900000e+000	-6.053986e-005	2.715447e-005
7.200000000000000e+003	1.000000e+000	1.900000e+000	-6.500278e-005	2.916149e-005
7.700000000000000e+003	1.000000e+000	1.900000e+000	-6.943462e-005	3.115297e-005
8.200000000000000e+003	1.000000e+000	1.900000e+000	-7.382695e-005	3.312470e-005
8.700000000000000e+003	1.000000e+000	1.900000e+000	-7.817111e-005	3.507234e-005
9.200000000000000e+003	1.000000e+000	1.900000e+000	-8.245851e-005	3.699160e-005
9.700000000000000e+003	1.000000e+000	1.900000e+000	-8.668092e-005	3.887837e-005
1.020000000000000e+004	1.000000e+000	1.900000e+000	-9.083068e-005	4.072881e-005
1.070000000000000e+004	1.000000e+000	1.900000e+000	-9.490080e-005	4.253944e-005
1.120000000000000e+004	1.000000e+000	1.900000e+000	-9.888513e-005	4.430717e-005
1.170000000000000e+004	1.000000e+000	1.900000e+000	-1.027784e-004	4.602936e-005
1.220000000000000e+004	1.000000e+000	1.900000e+000	-1.065762e-004	4.770380e-005
1.270000000000000e+004	1.000000e+000	1.900000e+000	-1.102749e-004	4.932874e-005
1.320000000000000e+004	1.000000e+000	1.900000e+000	-1.138719e-004	5.090282e-005
1.370000000000000e+004	1.000000e+000	1.900000e+000	-1.173654e-004	5.242509e-005
1.420000000000000e+004	1.000000e+000	1.900000e+000	-1.207540e-004	5.389498e-005
1.470000000000000e+004	1.000000e+000	1.900000e+000	-1.240374e-004	5.531223e-005
1.520000000000000e+004	1.000000e+000	1.900000e+000	-1.272155e-004	5.667688e-005
1.570000000000000e+004	1.000000e+000	1.900000e+000	-1.302891e-004	5.798924e-005
1.620000000000000e+004	1.000000e+000	1.900000e+000	-1.332593e-004	5.924985e-005
1.670000000000000e+004	1.000000e+000	1.900000e+000	-1.361273e-004	6.045944e-005
1.720000000000000e+004	1.000000e+000	1.900000e+000	-1.388951e-004	6.161891e-005
1.770000000000000e+004	1.000000e+000	1.900000e+000	-1.415647e-004	6.272928e-005
1.820000000000000e+004	1.000000e+000	1.900000e+000	-1.441385e-004	6.379170e-005
1.870000000000000e+004	1.000000e+000	1.900000e+000	-1.466187e-004	6.480740e-005
1.920000000000000e+004	1.000000e+000	1.900000e+000	-1.490082e-004	6.577768e-005
1.970000000000000e+004	1.000000e+000	1.900000e+000	-1.513094e-004	6.670388e-005
2.020000000000000e+004	1.000000e+000	1.900000e+000	-1.535253e-004	6.758739e-005
2.070000000000000e+004	1.000000e+000	1.900000e+000	-1.556586e-004	6.842960e-005
2.120000000000000e+004	1.000000e+000	1.900000e+000	-1.577122e-004	6.923193e-005
2.170000000000000e+004	1.000000e+000	1.900000e+000	-1.596887e-004	6.999577e-005
2.220000000000000e+004	1.000000e+000	1.900000e+000	-1.615911e-004	7.072253e-005
2.270000000000000e+004	1.000000e+000	1.900000e+000	-1.634221e-004	7.141357e-005
2.320000000000000e+004	1.000000e+000	1.900000e+000	-1.651843e-004	7.207027e-005
2.370000000000000e+004	1.000000e+000	1.900000e+000	-1.668805e-004	7.269392e-005
2.420000000000000e+004	1.000000e+000	1.900000e+000	-1.685132e-004	7.328583e-005
2.470000000000000e+004	1.000000e+000	1.900000e+000	-1.700850e-004	7.384727e-005
2.520000000000000e+004	1.000000e+000	1.900000e+000	-1.715982e-004	7.437944e-005
2.570000000000000e+004	1.000000e+000	1.900000e+000	-1.730553e-004	7.488355e-005
2.620000000000000e+004	1.000000e+000	1.900000e+000	-1.744585e-004	7.536072e-005
2.670000000000000e+004	1.000000e+000	1.900000e+000	-1.758101e-004	7.581207e-005
2.720000000000000e+004	1.000000e+000	1.900000e+000	-1.771121e-004	7.623866e-005
2.770000000000000e+004	1.000000e+000	1.900000e+000	-1.783667e-004	7.664150e-005
2.820000000000000e+004	1.000000e+000	1.900000e+000	-1.795757e-004	7.702159e-005
2.870000000000000e+004	1.000000e+000	1.900000e+000	-1.807412e-004	7.737988e-005
2.920000000000000e+004	1.000000e+000	1.900000e+000	-1.818648e-004	7.771727e-005
2.970000000000000e+004	1.000000e+000	1.900000e+000	-1.829484e-004	7.803462e-005
3.020000000000000e+004	1.000000e+000	1.900000e+000	-1.839936e-004	7.833278e-005
3.070000000000000e+004	1.000000e+000	1.900000e+000	-1.850020e-004	7.861254e-005
3.120000000000000e+004	1.000000e+000	1.900000e+000	-1.859751e-004	7.887466e-005
3.170000000000000e+004	1.000000e+000	1.900000e+000	-1.869144e-004	7.911988e-005
3.220000000000000e+004	1.000000e+000	1.900000e+000	-1.878213e-004	7.934889e-005
3.270000000000000e+004	1.000000e+000	1.900000e+000	-1.886972e-004	7.956237e-005
3.320000000000000e+004	1.000000e+000	1.900000e+000	-1.895432e-004	7.976095e-005
3.370000000000000e+004	1.000000e+000	1.900000e+000	-1.903606e-004	7.994523e-005
3.420000000000000e+004	1.000000e+000	1.900000e+000	-1.911507e-004	8.011581e-005
3.470000000000000e+004	1.000000e+000	1.900000e+000	-1.919144e-004	8.027324e-005
3.520000000000000e+004	1.000000e+000	1.900000e+000	-1.926529e-004	8.041805e-005
3.570000000000000e+004	1.000000e+000	1.900000e+000	-1.933672e-004	8.055075e-005
3.620000000000000e+004	1.000000e+000	1.900000e+000	-1.940582e-004	8.067182e-005
3.670000000000000e+004	1.000000e+000	1.900000e+000	-1.947269e-004	8.078174e-005
3.720000000000000e+004	1.000000e+000	1.900000e+000	-1.953742e-004	8.088093e-005
3.770000000000000e+004	1.000000e+000	1.900000e+000	-1.960009e-004	8.096984e-005
3.820000000000000e+004	1.000000e+000	1.900000e+000	-1.966078e-004	8.104885e-005
3.870000000000000e+004	1.000000e+000	1.900000e+000	-1.971956e-004	8.111836e-005
3.920000000000000e+004	1.000000e+000	1.900000e+000	-1.977652e-004	8.117872e-005
3.970000000000000e+004	1.000000e+000	1.900000e+000	-1.983173e-004	8.123031e-005
4.020000000000000e+004	1.000000e+000	1.900000e+000	-1.988524e-004	8.127345e-005
4.070000000000000e+004	1.000000e+000	1.900000e+000	-1.993714e-004	8.130846e-005
4.120000000000000e+004	1.000000e+000	1.900000e+000	-1.998746e-004	8.133566e-005
4.170000000000000e+004	1.000000e+000	1.900000e+000	-2.003628e-004	8.135534e-005
4.220000000000000e+004	1.000000e+000	1.900000e+000	-2.008366e-004	8.136778e-005
4.270000000000000e+004	1.000000e+000	1.900000e+000	-2.012964e-004	8.137324e-005
4.320000000000000e+004	1.000000e+000	1.900000e+000	-2.017428e-004	8.137199e-005
4.370000000000000e+004	1.000000e+000	1.900000e+000	-2.021762e-004	8.136427e-005
4.420000000000000e+004	1.000000e+000	1.900000e+000	-2.025972e-004	8.135032e-005
4.470000000000000e+004	1.000000e+000	1.900000e+000	-2.030062e-004	8.133037e-005
4.520000000000000e+004	1.000000e+000	1.900000e+000	-2.034036e-004	8.130463e-005
4.570000000000000e+004	1.000000e+000	1.900000e+000	-2.037898e-004	8.127331e-005
4.620000000000000e+004	1.000000e+000	1.900000e+000	-2.041652e-004	8.123660e-005
4.670000000000000e+004	1.000000e+000	1.900000e+000	-2.045303e-004	8.119470e-005
4.720000000000000e+004	1.000000e+000	1.900000e+000	-2.048854e-004	8.114779e-005
4.770000000000000e+004	1.000000e+000	1.900000e+000	-2.052308e-004	8.109603e-005
4.820000000000000e+004	1.000000e+000	1.900000e+000	-2.055668e-004	8.103962e-005
4.870000000000000e+004	1.000000e+000	1.900000e+000	-2.058938e-004	8.097869e-005
4.920000000000000e+004	1.000000e+000	1.900000e+000	-2.062121e-004	8.091341e-005
4.970000000000000e+004	1.000000e+000	1.900000e+000	-2.065220e-004	8.084393e-005
5.020000000000000e+004	1.000000e+000	1.900000e+000	-2.068238e-004	8.077038e-005
5.070000000000000e+004	1.000000e+000	1.900000e+000	-2.071177e-004	8.069289e-005
5.120000000000000e+004	1.000000e+000	1.900000e+000	-2.074040e-004	8.061161e-005
5.170000000000000e+004	1.000000e+000	1.900000e+000	-2.076830e-004	8.052667e-005
5.220000000000000e+004	1.000000e+000	1.900000e+000	-2.079549e-004	8.043816e-005
5.270000000000000e+004	1.000000e+000	1.900000e+000	-2.082199e-004	8.034622e-005
5.320000000000000e+004	1.000000e+000	1.900000e+000	-2.084782e-004	8.025096e-005
5.370000000000000e+004	1.000000e+000	1.900000e+000	-2.087301e-004	8.015248e-005
5.420000000000000e+004	1.000000e+000	1.900000e+000	-2.089758e-004	8.005088e-005
5.470000000000000e+004	1.000000e+000	1.900000e+000	-2.092155e-004	7.994627e-005
5.520000000000000e+004	1.000000e+000	1.900000e+000	-2.094493e-004	7.983873e-005
5.570000000000000e+004	1.000000e+000	1.900000e+000	-2.096774e-004	7.972837e-005
5.620000000000000e+004	1.000000e+000	1.900000e+000	-2.099001e-004	7.961527e-005
5.670000000000000e+004	1.000000e+000	1.900000e+000	-2.101174e-004	7.949951e-005
5.720000000000000e+004	1.000000e+000	1.900000e+000	-2.103296e-004	7.938117e-005
5.770000000000000e+004	1.000000e+000	1.900000e+000	-2.105368e-004	7.926034e-005
5.820000000000000e+004	1.000000e+000	1.900000e+000	-2.107392e-004	7.913708e-005
5.870000000000000e+004	1.000000e+000	1.900000e+000	-2.109369e-004	7.901148e-005
5.920000000000000e+004	1.000000e+000	1.900000e+000	-2.111300e-004	7.888360e-005
5.970000000000000e+004	1.000000e+000	1.900000e+000	-2.113187e-004	7.875352e-005
6.020000000000000e+004	1.000000e+000	1.900000e+000	-2.115031e-004	7.862128e-005
6.070000000000000e+004	1.000000e+000	1.900000e+000	-2.116834e-004	7.848697e-005
6.120000000000000e+004	1.000000e+000	1.900000e+000	-2.118596e-004	7.835064e-005
6.170000000000000e+004	1.000000e+000	1.900000e+000	-2.120319e-004	7.821234e-005
6.220000000000000e+004	1.000000e+000	1.900000e+000	-2.122003e-004	7.807214e-005
6.270000000000000e+004	1.000000e+000	1.900000e+000	-2.123651e-004	7.793009e-005
6.320000000000000e+004	1.000000e+000	1.900000e+000	-2.125263e-004	7.778624e-005
6.370000000000000e+004	1.000000e+000	1.900000e+000	-2.126840e-004	7.764064e-005
6.420000000000000e+004	1.000000e+000	1.900000e+000	-2.128382e-004	7.749334e-005
6.470000000000000e+004	1.000000e+000	1.900000e+000	-2.129892e-004	7.734440e-005
6.520000000000000e+004	1.000000e+000	1.900000e+000	-2.131370e-004	7.719385e-005
6.570000000000000e+004	1.000000e+000	1.900000e+000	-2.132816e-004	7.704174e-005
6.620000000000000e+004	1.000000e+000	1.900000e+000	-2.134233e-004	7.688811e-005
6.670000000000000e+004	1.000000e+000	1.900000e+000	-2.135619e-004	7.673300e-005
6.720000000000000e+004	1.000000e+000	1.900000e+000	-2.136977e-004	7.657646e-005
6.770000000000000e+004	1.000000e+000	1.900000e+000	-2.138307e-004	7.641852e-005
6.820000000000000e+004	1.000000e+000	1.900000e+000	-2.139610e-004	7.625922e-005
6.870000000000000e+004	1.000000e+000	1.900000e+000	-2.140886e-004	7.609859e-005
6.920000000000000e+004	1.000000e+000	1.900000e+000	-2.142137e-004	7.593668e-005
6.970000000000000e+004	1.000000e+000	1.900000e+000	-2.143362e-004	7.577351e-005
7.020000000000000e+004	1.000000e+000	1.900000e+000	-2.144563e-004	7.560912e-005
7.070000000000000e+004	1.000000e+000	1.900000e+000	-2.145740e-004	7.544354e-005
7.120000000000000e+004	1.000000e+000	1.900000e+000	-2.146894e-004	7.527680e-005
7.170000000000000e+004	1.000000e+000	1.900000e+000	-2.148025e-004	7.510892e-005
7.220000000000000e+004	1.000000e+000	1.900000e+000	-2.149134e-004	7.493995e-005
7.270000000000000e+004	1.000000e+000	1.900000e+000	-2.150222e-004	7.476990e-005
7.320000000000000e+004	1.000000e+000	1.900000e+000	-2.151289e-004	7.459881e-005
7.370000000000000e+004	1.000000e+000	1.900000e+000	-2.152336e-004	7.442669e-005
7.420000000000000e+004	1.000000e+000	1.900000e+000	-2.153362e-004	7.425358e-005
7.470000000000000e+004	1.000000e+000	1.900000e+000	-2.154369e-004	7.407951e-005
7.500000000000000e+004	1.000000e+000	1.900000e+000	-2.154965e-004	7.397460e-005
