fsw	V(b)	V(in)	V(out)	V(t)	I(In)	I(Out)
Step Information: B=0 T=0  (Run: 1/9)
5.000000000000000e+007	0.000000e+000	1.000000e+000	1.850000e+000	0.000000e+000	-1.479921e-002	7.399607e-003
5.500000000000000e+007	0.000000e+000	1.000000e+000	1.850000e+000	0.000000e+000	-1.615337e-002	8.076686e-003
6.000000000000000e+007	0.000000e+000	1.000000e+000	1.850000e+000	0.000000e+000	-1.745038e-002	8.725191e-003
6.500000000000000e+007	0.000000e+000	1.000000e+000	1.850000e+000	0.000000e+000	-1.868432e-002	9.342158e-003
7.000000000000000e+007	0.000000e+000	1.000000e+000	1.850000e+000	0.000000e+000	-1.985143e-002	9.925717e-003
7.500000000000000e+007	0.000000e+000	1.000000e+000	1.850000e+000	0.000000e+000	-2.094997e-002	1.047498e-002
8.000000000000000e+007	0.000000e+000	1.000000e+000	1.850000e+000	0.000000e+000	-2.197979e-002	1.098989e-002
8.500000000000000e+007	0.000000e+000	1.000000e+000	1.850000e+000	0.000000e+000	-2.294208e-002	1.147104e-002
9.000000000000000e+007	0.000000e+000	1.000000e+000	1.850000e+000	0.000000e+000	-2.383901e-002	1.191950e-002
9.500000000000000e+007	0.000000e+000	1.000000e+000	1.850000e+000	0.000000e+000	-2.467339e-002	1.233670e-002
1.000000000000000e+008	0.000000e+000	1.000000e+000	1.850000e+000	0.000000e+000	-2.544851e-002	1.272425e-002
1.050000000000000e+008	0.000000e+000	1.000000e+000	1.850000e+000	0.000000e+000	-2.616788e-002	1.308394e-002
1.100000000000000e+008	0.000000e+000	1.000000e+000	1.850000e+000	0.000000e+000	-2.683514e-002	1.341757e-002
1.150000000000000e+008	0.000000e+000	1.000000e+000	1.850000e+000	0.000000e+000	-2.745388e-002	1.372694e-002
1.200000000000000e+008	0.000000e+000	1.000000e+000	1.850000e+000	0.000000e+000	-2.802763e-002	1.401382e-002
1.250000000000000e+008	0.000000e+000	1.000000e+000	1.850000e+000	0.000000e+000	-2.855978e-002	1.427989e-002
1.300000000000000e+008	0.000000e+000	1.000000e+000	1.850000e+000	0.000000e+000	-2.905353e-002	1.452676e-002
1.350000000000000e+008	0.000000e+000	1.000000e+000	1.850000e+000	0.000000e+000	-2.951190e-002	1.475595e-002
1.400000000000000e+008	0.000000e+000	1.000000e+000	1.850000e+000	0.000000e+000	-2.993769e-002	1.496884e-002
1.450000000000000e+008	0.000000e+000	1.000000e+000	1.850000e+000	0.000000e+000	-3.033351e-002	1.516676e-002
1.500000000000000e+008	0.000000e+000	1.000000e+000	1.850000e+000	0.000000e+000	-3.070178e-002	1.535089e-002
1.550000000000000e+008	0.000000e+000	1.000000e+000	1.850000e+000	0.000000e+000	-3.104471e-002	1.552235e-002
1.600000000000000e+008	0.000000e+000	1.000000e+000	1.850000e+000	0.000000e+000	-3.136433e-002	1.568217e-002
1.650000000000000e+008	0.000000e+000	1.000000e+000	1.850000e+000	0.000000e+000	-3.166252e-002	1.583126e-002
1.700000000000000e+008	0.000000e+000	1.000000e+000	1.850000e+000	0.000000e+000	-3.194097e-002	1.597049e-002
1.750000000000000e+008	0.000000e+000	1.000000e+000	1.850000e+000	0.000000e+000	-3.220126e-002	1.610063e-002
1.800000000000000e+008	0.000000e+000	1.000000e+000	1.850000e+000	0.000000e+000	-3.244480e-002	1.622240e-002
1.850000000000000e+008	0.000000e+000	1.000000e+000	1.850000e+000	0.000000e+000	-3.267290e-002	1.633645e-002
1.900000000000000e+008	0.000000e+000	1.000000e+000	1.850000e+000	0.000000e+000	-3.288676e-002	1.644338e-002
1.950000000000000e+008	0.000000e+000	1.000000e+000	1.850000e+000	0.000000e+000	-3.308745e-002	1.654373e-002
2.000000000000000e+008	0.000000e+000	1.000000e+000	1.850000e+000	0.000000e+000	-3.327598e-002	1.663799e-002
2.050000000000000e+008	0.000000e+000	1.000000e+000	1.850000e+000	0.000000e+000	-3.345326e-002	1.672663e-002
2.100000000000000e+008	0.000000e+000	1.000000e+000	1.850000e+000	0.000000e+000	-3.362010e-002	1.681005e-002
2.150000000000000e+008	0.000000e+000	1.000000e+000	1.850000e+000	0.000000e+000	-3.377729e-002	1.688864e-002
2.200000000000000e+008	0.000000e+000	1.000000e+000	1.850000e+000	0.000000e+000	-3.392550e-002	1.696275e-002
2.250000000000000e+008	0.000000e+000	1.000000e+000	1.850000e+000	0.000000e+000	-3.406539e-002	1.703269e-002
2.300000000000000e+008	0.000000e+000	1.000000e+000	1.850000e+000	0.000000e+000	-3.419753e-002	1.709876e-002
2.350000000000000e+008	0.000000e+000	1.000000e+000	1.850000e+000	0.000000e+000	-3.432247e-002	1.716123e-002
2.400000000000000e+008	0.000000e+000	1.000000e+000	1.850000e+000	0.000000e+000	-3.444069e-002	1.722034e-002
2.450000000000000e+008	0.000000e+000	1.000000e+000	1.850000e+000	0.000000e+000	-3.455266e-002	1.727633e-002
2.500000000000000e+008	0.000000e+000	1.000000e+000	1.850000e+000	0.000000e+000	-3.465879e-002	1.732939e-002
Step Information: B=10m T=0  (Run: 2/9)
5.000000000000000e+007	1.000000e-002	1.000000e+000	1.850000e+000	0.000000e+000	-1.528994e-002	7.395473e-003
5.500000000000000e+007	1.000000e-002	1.000000e+000	1.850000e+000	0.000000e+000	-1.668778e-002	8.069756e-003
6.000000000000000e+007	1.000000e-002	1.000000e+000	1.850000e+000	0.000000e+000	-1.802622e-002	8.714478e-003
6.500000000000000e+007	1.000000e-002	1.000000e+000	1.850000e+000	0.000000e+000	-1.929918e-002	9.326602e-003
7.000000000000000e+007	1.000000e-002	1.000000e+000	1.850000e+000	0.000000e+000	-2.050282e-002	9.904229e-003
7.500000000000000e+007	1.000000e-002	1.000000e+000	1.850000e+000	0.000000e+000	-2.163539e-002	1.044647e-002
8.000000000000000e+007	1.000000e-002	1.000000e+000	1.850000e+000	0.000000e+000	-2.269681e-002	1.095328e-002
8.500000000000000e+007	1.000000e-002	1.000000e+000	1.850000e+000	0.000000e+000	-2.368835e-002	1.142529e-002
9.000000000000000e+007	1.000000e-002	1.000000e+000	1.850000e+000	0.000000e+000	-2.461227e-002	1.186362e-002
9.500000000000000e+007	1.000000e-002	1.000000e+000	1.850000e+000	0.000000e+000	-2.547156e-002	1.226976e-002
1.000000000000000e+008	1.000000e-002	1.000000e+000	1.850000e+000	0.000000e+000	-2.626962e-002	1.264538e-002
1.050000000000000e+008	1.000000e-002	1.000000e+000	1.850000e+000	0.000000e+000	-2.701013e-002	1.299233e-002
1.100000000000000e+008	1.000000e-002	1.000000e+000	1.850000e+000	0.000000e+000	-2.769683e-002	1.331245e-002
1.150000000000000e+008	1.000000e-002	1.000000e+000	1.850000e+000	0.000000e+000	-2.833349e-002	1.360763e-002
1.200000000000000e+008	1.000000e-002	1.000000e+000	1.850000e+000	0.000000e+000	-2.892375e-002	1.387967e-002
1.250000000000000e+008	1.000000e-002	1.000000e+000	1.850000e+000	0.000000e+000	-2.947111e-002	1.413032e-002
1.300000000000000e+008	1.000000e-002	1.000000e+000	1.850000e+000	0.000000e+000	-2.997890e-002	1.436122e-002
1.350000000000000e+008	1.000000e-002	1.000000e+000	1.850000e+000	0.000000e+000	-3.045023e-002	1.457394e-002
1.400000000000000e+008	1.000000e-002	1.000000e+000	1.850000e+000	0.000000e+000	-3.088800e-002	1.476991e-002
1.450000000000000e+008	1.000000e-002	1.000000e+000	1.850000e+000	0.000000e+000	-3.129491e-002	1.495047e-002
1.500000000000000e+008	1.000000e-002	1.000000e+000	1.850000e+000	0.000000e+000	-3.167345e-002	1.511688e-002
1.550000000000000e+008	1.000000e-002	1.000000e+000	1.850000e+000	0.000000e+000	-3.202590e-002	1.527025e-002
1.600000000000000e+008	1.000000e-002	1.000000e+000	1.850000e+000	0.000000e+000	-3.235437e-002	1.541165e-002
1.650000000000000e+008	1.000000e-002	1.000000e+000	1.850000e+000	0.000000e+000	-3.266077e-002	1.554203e-002
1.700000000000000e+008	1.000000e-002	1.000000e+000	1.850000e+000	0.000000e+000	-3.294687e-002	1.566227e-002
1.750000000000000e+008	1.000000e-002	1.000000e+000	1.850000e+000	0.000000e+000	-3.321429e-002	1.577317e-002
1.800000000000000e+008	1.000000e-002	1.000000e+000	1.850000e+000	0.000000e+000	-3.346448e-002	1.587546e-002
1.850000000000000e+008	1.000000e-002	1.000000e+000	1.850000e+000	0.000000e+000	-3.369879e-002	1.596982e-002
1.900000000000000e+008	1.000000e-002	1.000000e+000	1.850000e+000	0.000000e+000	-3.391846e-002	1.605685e-002
1.950000000000000e+008	1.000000e-002	1.000000e+000	1.850000e+000	0.000000e+000	-3.412459e-002	1.613712e-002
2.000000000000000e+008	1.000000e-002	1.000000e+000	1.850000e+000	0.000000e+000	-3.431821e-002	1.621113e-002
2.050000000000000e+008	1.000000e-002	1.000000e+000	1.850000e+000	0.000000e+000	-3.450027e-002	1.627935e-002
2.100000000000000e+008	1.000000e-002	1.000000e+000	1.850000e+000	0.000000e+000	-3.467160e-002	1.634222e-002
2.150000000000000e+008	1.000000e-002	1.000000e+000	1.850000e+000	0.000000e+000	-3.483301e-002	1.640011e-002
2.200000000000000e+008	1.000000e-002	1.000000e+000	1.850000e+000	0.000000e+000	-3.498520e-002	1.645339e-002
2.250000000000000e+008	1.000000e-002	1.000000e+000	1.850000e+000	0.000000e+000	-3.512883e-002	1.650239e-002
2.300000000000000e+008	1.000000e-002	1.000000e+000	1.850000e+000	0.000000e+000	-3.526450e-002	1.654740e-002
2.350000000000000e+008	1.000000e-002	1.000000e+000	1.850000e+000	0.000000e+000	-3.539277e-002	1.658871e-002
2.400000000000000e+008	1.000000e-002	1.000000e+000	1.850000e+000	0.000000e+000	-3.551415e-002	1.662656e-002
2.450000000000000e+008	1.000000e-002	1.000000e+000	1.850000e+000	0.000000e+000	-3.562909e-002	1.666120e-002
2.500000000000000e+008	1.000000e-002	1.000000e+000	1.850000e+000	0.000000e+000	-3.573804e-002	1.669283e-002
Step Information: B=50m T=0  (Run: 3/9)
5.000000000000000e+007	5.000000e-002	1.000000e+000	1.850000e+000	0.000000e+000	-1.725094e-002	7.378120e-003
5.500000000000000e+007	5.000000e-002	1.000000e+000	1.850000e+000	0.000000e+000	-1.882252e-002	8.040789e-003
6.000000000000000e+007	5.000000e-002	1.000000e+000	1.850000e+000	0.000000e+000	-2.032548e-002	8.669849e-003
6.500000000000000e+007	5.000000e-002	1.000000e+000	1.850000e+000	0.000000e+000	-2.175311e-002	9.262000e-003
7.000000000000000e+007	5.000000e-002	1.000000e+000	1.850000e+000	0.000000e+000	-2.310133e-002	9.815222e-003
7.500000000000000e+007	5.000000e-002	1.000000e+000	1.850000e+000	0.000000e+000	-2.436838e-002	1.032863e-002
8.000000000000000e+007	5.000000e-002	1.000000e+000	1.850000e+000	0.000000e+000	-2.555443e-002	1.080227e-002
8.500000000000000e+007	5.000000e-002	1.000000e+000	1.850000e+000	0.000000e+000	-2.666114e-002	1.123695e-002
9.000000000000000e+007	5.000000e-002	1.000000e+000	1.850000e+000	0.000000e+000	-2.769129e-002	1.163399e-002
9.500000000000000e+007	5.000000e-002	1.000000e+000	1.850000e+000	0.000000e+000	-2.864840e-002	1.199509e-002
1.000000000000000e+008	5.000000e-002	1.000000e+000	1.850000e+000	0.000000e+000	-2.953647e-002	1.232221e-002
1.050000000000000e+008	5.000000e-002	1.000000e+000	1.850000e+000	0.000000e+000	-3.035976e-002	1.261740e-002
1.100000000000000e+008	5.000000e-002	1.000000e+000	1.850000e+000	0.000000e+000	-3.112261e-002	1.288277e-002
1.150000000000000e+008	5.000000e-002	1.000000e+000	1.850000e+000	0.000000e+000	-3.182930e-002	1.312044e-002
1.200000000000000e+008	5.000000e-002	1.000000e+000	1.850000e+000	0.000000e+000	-3.248403e-002	1.333242e-002
1.250000000000000e+008	5.000000e-002	1.000000e+000	1.850000e+000	0.000000e+000	-3.309077e-002	1.352068e-002
1.300000000000000e+008	5.000000e-002	1.000000e+000	1.850000e+000	0.000000e+000	-3.365328e-002	1.368705e-002
1.350000000000000e+008	5.000000e-002	1.000000e+000	1.850000e+000	0.000000e+000	-3.417510e-002	1.383326e-002
1.400000000000000e+008	5.000000e-002	1.000000e+000	1.850000e+000	0.000000e+000	-3.465951e-002	1.396092e-002
1.450000000000000e+008	5.000000e-002	1.000000e+000	1.850000e+000	0.000000e+000	-3.510955e-002	1.407153e-002
1.500000000000000e+008	5.000000e-002	1.000000e+000	1.850000e+000	0.000000e+000	-3.552801e-002	1.416645e-002
1.550000000000000e+008	5.000000e-002	1.000000e+000	1.850000e+000	0.000000e+000	-3.591746e-002	1.424696e-002
1.600000000000000e+008	5.000000e-002	1.000000e+000	1.850000e+000	0.000000e+000	-3.628026e-002	1.431421e-002
1.650000000000000e+008	5.000000e-002	1.000000e+000	1.850000e+000	0.000000e+000	-3.661856e-002	1.436927e-002
1.700000000000000e+008	5.000000e-002	1.000000e+000	1.850000e+000	0.000000e+000	-3.693433e-002	1.441310e-002
1.750000000000000e+008	5.000000e-002	1.000000e+000	1.850000e+000	0.000000e+000	-3.722939e-002	1.444659e-002
1.800000000000000e+008	5.000000e-002	1.000000e+000	1.850000e+000	0.000000e+000	-3.750535e-002	1.447056e-002
1.850000000000000e+008	5.000000e-002	1.000000e+000	1.850000e+000	0.000000e+000	-3.776372e-002	1.448574e-002
1.900000000000000e+008	5.000000e-002	1.000000e+000	1.850000e+000	0.000000e+000	-3.800587e-002	1.449282e-002
1.950000000000000e+008	5.000000e-002	1.000000e+000	1.850000e+000	0.000000e+000	-3.823305e-002	1.449241e-002
2.000000000000000e+008	5.000000e-002	1.000000e+000	1.850000e+000	0.000000e+000	-3.844639e-002	1.448507e-002
2.050000000000000e+008	5.000000e-002	1.000000e+000	1.850000e+000	0.000000e+000	-3.864694e-002	1.447133e-002
2.100000000000000e+008	5.000000e-002	1.000000e+000	1.850000e+000	0.000000e+000	-3.883564e-002	1.445164e-002
2.150000000000000e+008	5.000000e-002	1.000000e+000	1.850000e+000	0.000000e+000	-3.901336e-002	1.442645e-002
2.200000000000000e+008	5.000000e-002	1.000000e+000	1.850000e+000	0.000000e+000	-3.918091e-002	1.439615e-002
2.250000000000000e+008	5.000000e-002	1.000000e+000	1.850000e+000	0.000000e+000	-3.933900e-002	1.436110e-002
2.300000000000000e+008	5.000000e-002	1.000000e+000	1.850000e+000	0.000000e+000	-3.948832e-002	1.432164e-002
2.350000000000000e+008	5.000000e-002	1.000000e+000	1.850000e+000	0.000000e+000	-3.962946e-002	1.427806e-002
2.400000000000000e+008	5.000000e-002	1.000000e+000	1.850000e+000	0.000000e+000	-3.976299e-002	1.423066e-002
2.450000000000000e+008	5.000000e-002	1.000000e+000	1.850000e+000	0.000000e+000	-3.988943e-002	1.417969e-002
2.500000000000000e+008	5.000000e-002	1.000000e+000	1.850000e+000	0.000000e+000	-4.000926e-002	1.412538e-002
Step Information: B=0 T=10m  (Run: 4/9)
5.000000000000000e+007	0.000000e+000	1.000000e+000	1.850000e+000	1.000000e-002	-1.437747e-002	6.975731e-003
5.500000000000000e+007	0.000000e+000	1.000000e+000	1.850000e+000	1.000000e-002	-1.569190e-002	7.611331e-003
6.000000000000000e+007	0.000000e+000	1.000000e+000	1.850000e+000	1.000000e-002	-1.695046e-002	8.218865e-003
6.500000000000000e+007	0.000000e+000	1.000000e+000	1.850000e+000	1.000000e-002	-1.814745e-002	8.795461e-003
7.000000000000000e+007	0.000000e+000	1.000000e+000	1.850000e+000	1.000000e-002	-1.927927e-002	9.339318e-003
7.500000000000000e+007	0.000000e+000	1.000000e+000	1.850000e+000	1.000000e-002	-2.034425e-002	9.849603e-003
8.000000000000000e+007	0.000000e+000	1.000000e+000	1.850000e+000	1.000000e-002	-2.134232e-002	1.032629e-002
8.500000000000000e+007	0.000000e+000	1.000000e+000	1.850000e+000	1.000000e-002	-2.227469e-002	1.076998e-002
9.000000000000000e+007	0.000000e+000	1.000000e+000	1.850000e+000	1.000000e-002	-2.314348e-002	1.118175e-002
9.500000000000000e+007	0.000000e+000	1.000000e+000	1.850000e+000	1.000000e-002	-2.395148e-002	1.156302e-002
1.000000000000000e+008	0.000000e+000	1.000000e+000	1.850000e+000	1.000000e-002	-2.470192e-002	1.191539e-002
1.050000000000000e+008	0.000000e+000	1.000000e+000	1.850000e+000	1.000000e-002	-2.539823e-002	1.224060e-002
1.100000000000000e+008	0.000000e+000	1.000000e+000	1.850000e+000	1.000000e-002	-2.604396e-002	1.254044e-002
1.150000000000000e+008	0.000000e+000	1.000000e+000	1.850000e+000	1.000000e-002	-2.664262e-002	1.281668e-002
1.200000000000000e+008	0.000000e+000	1.000000e+000	1.850000e+000	1.000000e-002	-2.719766e-002	1.307103e-002
1.250000000000000e+008	0.000000e+000	1.000000e+000	1.850000e+000	1.000000e-002	-2.771235e-002	1.330516e-002
1.300000000000000e+008	0.000000e+000	1.000000e+000	1.850000e+000	1.000000e-002	-2.818984e-002	1.352064e-002
1.350000000000000e+008	0.000000e+000	1.000000e+000	1.850000e+000	1.000000e-002	-2.863304e-002	1.371894e-002
1.400000000000000e+008	0.000000e+000	1.000000e+000	1.850000e+000	1.000000e-002	-2.904468e-002	1.390143e-002
1.450000000000000e+008	0.000000e+000	1.000000e+000	1.850000e+000	1.000000e-002	-2.942731e-002	1.406939e-002
1.500000000000000e+008	0.000000e+000	1.000000e+000	1.850000e+000	1.000000e-002	-2.978326e-002	1.422398e-002
1.550000000000000e+008	0.000000e+000	1.000000e+000	1.850000e+000	1.000000e-002	-3.011468e-002	1.436628e-002
1.600000000000000e+008	0.000000e+000	1.000000e+000	1.850000e+000	1.000000e-002	-3.042354e-002	1.449730e-002
1.650000000000000e+008	0.000000e+000	1.000000e+000	1.850000e+000	1.000000e-002	-3.071166e-002	1.461793e-002
1.700000000000000e+008	0.000000e+000	1.000000e+000	1.850000e+000	1.000000e-002	-3.098069e-002	1.472901e-002
1.750000000000000e+008	0.000000e+000	1.000000e+000	1.850000e+000	1.000000e-002	-3.123214e-002	1.483130e-002
1.800000000000000e+008	0.000000e+000	1.000000e+000	1.850000e+000	1.000000e-002	-3.146740e-002	1.492548e-002
1.850000000000000e+008	0.000000e+000	1.000000e+000	1.850000e+000	1.000000e-002	-3.168774e-002	1.501220e-002
1.900000000000000e+008	0.000000e+000	1.000000e+000	1.850000e+000	1.000000e-002	-3.189429e-002	1.509202e-002
1.950000000000000e+008	0.000000e+000	1.000000e+000	1.850000e+000	1.000000e-002	-3.208812e-002	1.516549e-002
2.000000000000000e+008	0.000000e+000	1.000000e+000	1.850000e+000	1.000000e-002	-3.227019e-002	1.523307e-002
2.050000000000000e+008	0.000000e+000	1.000000e+000	1.850000e+000	1.000000e-002	-3.244138e-002	1.529522e-002
2.100000000000000e+008	0.000000e+000	1.000000e+000	1.850000e+000	1.000000e-002	-3.260249e-002	1.535233e-002
2.150000000000000e+008	0.000000e+000	1.000000e+000	1.850000e+000	1.000000e-002	-3.275426e-002	1.540478e-002
2.200000000000000e+008	0.000000e+000	1.000000e+000	1.850000e+000	1.000000e-002	-3.289737e-002	1.545290e-002
2.250000000000000e+008	0.000000e+000	1.000000e+000	1.850000e+000	1.000000e-002	-3.303243e-002	1.549699e-002
2.300000000000000e+008	0.000000e+000	1.000000e+000	1.850000e+000	1.000000e-002	-3.316000e-002	1.553735e-002
2.350000000000000e+008	0.000000e+000	1.000000e+000	1.850000e+000	1.000000e-002	-3.328062e-002	1.557424e-002
2.400000000000000e+008	0.000000e+000	1.000000e+000	1.850000e+000	1.000000e-002	-3.339475e-002	1.560788e-002
2.450000000000000e+008	0.000000e+000	1.000000e+000	1.850000e+000	1.000000e-002	-3.350284e-002	1.563851e-002
2.500000000000000e+008	0.000000e+000	1.000000e+000	1.850000e+000	1.000000e-002	-3.360528e-002	1.566633e-002
Step Information: B=10m T=10m  (Run: 5/9)
5.000000000000000e+007	1.000000e-002	1.000000e+000	1.850000e+000	1.000000e-002	-1.486816e-002	6.971581e-003
5.500000000000000e+007	1.000000e-002	1.000000e+000	1.850000e+000	1.000000e-002	-1.622626e-002	7.604379e-003
6.000000000000000e+007	1.000000e-002	1.000000e+000	1.850000e+000	1.000000e-002	-1.752624e-002	8.208122e-003
6.500000000000000e+007	1.000000e-002	1.000000e+000	1.850000e+000	1.000000e-002	-1.876224e-002	8.779869e-003
7.000000000000000e+007	1.000000e-002	1.000000e+000	1.850000e+000	1.000000e-002	-1.993058e-002	9.317787e-003
7.500000000000000e+007	1.000000e-002	1.000000e+000	1.850000e+000	1.000000e-002	-2.102958e-002	9.821040e-003
8.000000000000000e+007	1.000000e-002	1.000000e+000	1.850000e+000	1.000000e-002	-2.205923e-002	1.028962e-002
8.500000000000000e+007	1.000000e-002	1.000000e+000	1.850000e+000	1.000000e-002	-2.302083e-002	1.072416e-002
9.000000000000000e+007	1.000000e-002	1.000000e+000	1.850000e+000	1.000000e-002	-2.391662e-002	1.112581e-002
9.500000000000000e+007	1.000000e-002	1.000000e+000	1.850000e+000	1.000000e-002	-2.474952e-002	1.149601e-002
1.000000000000000e+008	1.000000e-002	1.000000e+000	1.850000e+000	1.000000e-002	-2.552290e-002	1.183645e-002
1.050000000000000e+008	1.000000e-002	1.000000e+000	1.850000e+000	1.000000e-002	-2.624033e-002	1.214892e-002
1.100000000000000e+008	1.000000e-002	1.000000e+000	1.850000e+000	1.000000e-002	-2.690551e-002	1.243525e-002
1.150000000000000e+008	1.000000e-002	1.000000e+000	1.850000e+000	1.000000e-002	-2.752209e-002	1.269729e-002
1.200000000000000e+008	1.000000e-002	1.000000e+000	1.850000e+000	1.000000e-002	-2.809362e-002	1.293681e-002
1.250000000000000e+008	1.000000e-002	1.000000e+000	1.850000e+000	1.000000e-002	-2.862354e-002	1.315552e-002
1.300000000000000e+008	1.000000e-002	1.000000e+000	1.850000e+000	1.000000e-002	-2.911506e-002	1.335503e-002
1.350000000000000e+008	1.000000e-002	1.000000e+000	1.850000e+000	1.000000e-002	-2.957122e-002	1.353686e-002
