time	V(n001)	V(n003)
0.000000000000000e+000	1.870800e+000	9.790955e-001
5.000000002255601e-014	1.870800e+000	9.790961e-001
1.500000000147285e-013	1.870798e+000	9.790971e-001
3.499999999990734e-013	1.870796e+000	9.790992e-001
4.000000000216294e-013	1.870795e+000	9.790991e-001
5.000000000138019e-013	1.870792e+000	9.790971e-001
5.031250000119029e-013	1.870792e+000	9.790969e-001
5.039062499981933e-013	1.870792e+000	9.790968e-001
5.054687500237135e-013	1.870792e+000	9.790964e-001
5.085937500218146e-013	1.870790e+000	9.790945e-001
5.148437500180166e-013	1.870778e+000	9.790826e-001
5.212725076356490e-013	1.870744e+000	9.790488e-001
5.255951507583394e-013	1.870687e+000	9.789925e-001
5.298330407172395e-013	1.870571e+000	9.788769e-001
5.339506961492220e-013	1.870362e+000	9.786690e-001
5.384139835341502e-013	1.869980e+000	9.782890e-001
5.434942294949469e-013	1.869335e+000	9.776471e-001
5.486928709682536e-013	1.868496e+000	9.768120e-001
5.521388807303150e-013	1.867877e+000	9.761952e-001
5.568749954687901e-013	1.867000e+000	9.753230e-001
5.611527005290133e-013	1.866209e+000	9.745355e-001
5.697081107023993e-013	1.864629e+000	9.729630e-001
5.868189310491713e-013	1.861480e+000	9.698281e-001
6.210405716897757e-013	1.855221e+000	9.635984e-001
6.894838529709846e-013	1.842862e+000	9.512973e-001
8.263704155863418e-013	1.818647e+000	9.271959e-001
1.000000000027604e-012	1.788521e+000	8.972098e-001
1.005528310800328e-012	1.787577e+000	8.962708e-001
1.016584932345776e-012	1.785711e+000	8.944128e-001
1.038698175489613e-012	1.781992e+000	8.907118e-001
1.082924661724346e-012	1.774617e+000	8.833710e-001
1.171377634193813e-012	1.760108e+000	8.689293e-001
1.348283579185685e-012	1.731851e+000	8.408027e-001
1.573282851130020e-012	1.697144e+000	8.062570e-001
1.783507265912570e-012	1.666036e+000	7.752916e-001
2.000823102362938e-012	1.635235e+000	7.446320e-001
2.207312093324828e-012	1.607188e+000	7.167138e-001
2.422756840453337e-012	1.579143e+000	6.887969e-001
2.631043093768919e-012	1.553155e+000	6.629267e-001
2.846206908920884e-012	1.527428e+000	6.373154e-001
3.055817265791894e-012	1.503407e+000	6.134030e-001
3.270752237734862e-012	1.479805e+000	5.899066e-001
3.481511499666434e-012	1.457628e+000	5.678276e-001
3.696447392598913e-012	1.435957e+000	5.462530e-001
3.908266508370325e-012	1.415494e+000	5.258804e-001
4.123383721940054e-012	1.395585e+000	5.060583e-001
4.336202237380492e-012	1.376715e+000	4.872706e-001
4.551652774879169e-012	1.358415e+000	4.690503e-001
4.765440258106541e-012	1.341022e+000	4.517315e-001
4.981357109847873e-012	1.324196e+000	4.349780e-001
5.196107304729771e-012	1.308169e+000	4.190186e-001
5.412610223173050e-012	1.292696e+000	4.036099e-001
5.628336949369645e-012	1.277931e+000	3.889071e-001
5.845537188586724e-012	1.263698e+000	3.747326e-001
6.062271326166417e-012	1.250100e+000	3.611903e-001
6.280275354757693e-012	1.237006e+000	3.481495e-001
6.498062638523316e-012	1.224484e+000	3.356782e-001
6.716975106721210e-012	1.212438e+000	3.236795e-001
6.935874574551550e-012	1.200909e+000	3.121963e-001
7.155800733346598e-012	1.189826e+000	3.011557e-001
7.375883693557352e-012	1.179213e+000	2.905838e-001
7.596931412701265e-012	1.169016e+000	2.804247e-001
7.818280828199151e-012	1.159247e+000	2.706927e-001
8.040562325369639e-012	1.149865e+000	2.613448e-001
8.263272533178607e-012	1.140875e+000	2.523872e-001
8.486905903297364e-012	1.132243e+000	2.437859e-001
8.711082614982115e-012	1.123971e+000	2.355419e-001
8.936193222525223e-012	1.116030e+000	2.276280e-001
9.161953756701755e-012	1.108418e+000	2.200417e-001
9.388675551459495e-012	1.101113e+000	2.127608e-001
9.616149269593550e-012	1.094111e+000	2.057806e-001
9.844626061931436e-012	1.087392e+000	1.990827e-001
1.007395498598434e-011	1.080951e+000	1.926611e-001
1.030434172374529e-011	1.074773e+000	1.865002e-001
1.053568132137350e-011	1.068849e+000	1.805934e-001
1.076814539584383e-011	1.063168e+000	1.749272e-001
1.100166552605827e-011	1.057721e+000	1.694949e-001
1.123638813648481e-011	1.052498e+000	1.642847e-001
1.147227415989931e-011	1.047491e+000	1.592896e-001
1.170945176207460e-011	1.042691e+000	1.544996e-001
1.194790581193177e-011	1.038089e+000	1.499078e-001
1.218775167710522e-011	1.033678e+000	1.455051e-001
1.242899411130269e-011	1.029450e+000	1.412849e-001
1.267174002284054e-011	1.025398e+000	1.372393e-001
1.291601106368086e-011	1.021515e+000	1.333619e-001
1.316190917720346e-011	1.017794e+000	1.296456e-001
1.340947076618450e-011	1.014228e+000	1.260844e-001
1.365879566843870e-011	1.010813e+000	1.226718e-001
1.390993355662507e-011	1.007541e+000	1.194023e-001
1.416298455962004e-011	1.004407e+000	1.162698e-001
1.441801067081211e-011	1.001406e+000	1.132694e-001
1.467511437732330e-011	9.985319e-001	1.103956e-001
1.493436948812233e-011	9.957806e-001	1.076435e-001
1.519588268679715e-011	9.931469e-001	1.050083e-001
1.545973946671247e-011	9.906263e-001	1.024856e-001
1.572605241003485e-011	9.882143e-001	1.000708e-001
1.599491889151311e-011	9.859068e-001	9.775980e-002
1.626645903291289e-011	9.836996e-001	9.554851e-002
1.654078258683427e-011	9.815890e-001	9.343312e-002
1.681801885772708e-011	9.795711e-001	9.140986e-002
1.709829076500094e-011	9.776425e-001	8.947521e-002
1.738173850875517e-011	9.757996e-001	8.762570e-002
1.766849925390536e-011	9.740391e-001	8.585811e-002
1.795872593315012e-011	9.723580e-001	8.416923e-002
1.825257135377422e-011	9.707533e-001	8.255608e-002
1.855020321120175e-011	9.692219e-001	8.101574e-002
1.885179169224538e-011	9.677610e-001	7.954543e-002
1.915752155125511e-011	9.663681e-001	7.814246e-002
1.946758248745340e-011	9.650406e-001	7.680429e-002
1.978217895601194e-011	9.637760e-001	7.552841e-002
2.010152276757770e-011	9.625718e-001	7.431249e-002
2.042584116266747e-011	9.614258e-001	7.315423e-002
2.075537121976807e-011	9.603360e-001	7.205142e-002
2.109036661984737e-011	9.593000e-001	7.100198e-002
2.143109354915004e-011	9.583159e-001	7.000387e-002
2.177783650169085e-011	9.573818e-001	6.905513e-002
2.213089545519394e-011	9.564957e-001	6.815389e-002
2.249059101030634e-011	9.556560e-001	6.729832e-002
2.285726267699744e-011	9.548607e-001	6.648670e-002
2.323127362953722e-011	9.541084e-001	6.571732e-002
2.361301000801171e-011	9.533973e-001	6.498855e-002
2.400288552649989e-011	9.527259e-001	6.429885e-002
2.440134178509941e-011	9.520927e-001	6.364667e-002
2.480885297011243e-011	9.514962e-001	6.303055e-002
2.522592722766839e-011	9.509351e-001	6.244907e-002
2.565311171315206e-011	9.504079e-001	6.190086e-002
2.609099515845456e-011	9.499135e-001	6.138457e-002
2.654021361940952e-011	9.494504e-001	6.089891e-002
2.700145440523189e-011	9.490176e-001	6.044262e-002
2.747546295960181e-011	9.486137e-001	6.001448e-002
2.796304854033819e-011	9.482376e-001	5.961324e-002
2.846304854035199e-011	9.478893e-001	5.923901e-002
2.896304854036579e-011	9.475754e-001	5.889895e-002
2.946304854037959e-011	9.472927e-001	5.859003e-002
2.996304854039339e-011	9.470384e-001	5.830928e-002
3.046304854040719e-011	9.468097e-001	5.805400e-002
3.096304854042100e-011	9.466041e-001	5.782177e-002
3.146304854043480e-011	9.464195e-001	5.761039e-002
3.196304854044860e-011	9.462538e-001	5.741786e-002
3.246304854046240e-011	9.461052e-001	5.724239e-002
3.296304854047620e-011	9.459721e-001	5.708234e-002
3.346304854049001e-011	9.458531e-001	5.693626e-002
3.396304854050381e-011	9.457467e-001	5.680279e-002
3.446304854051761e-011	9.456518e-001	5.668075e-002
3.496304854053141e-011	9.455673e-001	5.656904e-002
3.546304854054521e-011	9.454921e-001	5.646667e-002
3.596304854055901e-011	9.454255e-001	5.637275e-002
3.646304854057282e-011	9.453666e-001	5.628647e-002
3.696304854058662e-011	9.453145e-001	5.620711e-002
3.746304854060042e-011	9.452688e-001	5.613401e-002
3.796304854061422e-011	9.452287e-001	5.606657e-002
3.846304854062802e-011	9.451938e-001	5.600424e-002
3.896304854064183e-011	9.451635e-001	5.594655e-002
3.946304854065563e-011	9.451374e-001	5.589304e-002
3.996304854066943e-011	9.451151e-001	5.584333e-002
4.046304854068323e-011	9.450963e-001	5.579704e-002
4.096304854069703e-011	9.450806e-001	5.575386e-002
4.146304854071084e-011	9.450676e-001	5.571347e-002
4.196304854072464e-011	9.450573e-001	5.567563e-002
4.246304854073844e-011	9.450492e-001	5.564009e-002
4.296304854075224e-011	9.450432e-001	5.560662e-002
4.346304854076604e-011	9.450392e-001	5.557503e-002
4.396304854077984e-011	9.450367e-001	5.554514e-002
4.446304854079365e-011	9.450359e-001	5.551678e-002
4.496304854080745e-011	9.450364e-001	5.548982e-002
4.546304854082125e-011	9.450381e-001	5.546412e-002
4.596304854083505e-011	9.450411e-001	5.543956e-002
4.646304854084885e-011	9.450450e-001	5.541603e-002
4.696304854086266e-011	9.450499e-001	5.539343e-002
4.746304854087646e-011	9.450556e-001	5.537167e-002
4.796304854089026e-011	9.450621e-001	5.535068e-002
4.846304854090406e-011	9.450693e-001	5.533038e-002
4.896304854091786e-011	9.450771e-001	5.531070e-002
4.946304854093166e-011	9.450854e-001	5.529159e-002
4.996304854094547e-011	9.450942e-001	5.527300e-002
5.046304854095927e-011	9.451035e-001	5.525487e-002
5.096304854097307e-011	9.451133e-001	5.523715e-002
5.146304854098687e-011	9.451234e-001	5.521982e-002
5.196304854100067e-011	9.451338e-001	5.520283e-002
5.246304854101448e-011	9.451446e-001	5.518616e-002
5.296304854102828e-011	9.451556e-001	5.516976e-002
5.346304854104208e-011	9.451669e-001	5.515362e-002
5.396304854105588e-011	9.451784e-001	5.513772e-002
5.446304854106968e-011	9.451901e-001	5.512202e-002
5.496304854108349e-011	9.452020e-001	5.510651e-002
5.546304854109729e-011	9.452141e-001	5.509117e-002
5.596304854111109e-011	9.452263e-001	5.507600e-002
5.646304854112489e-011	9.452386e-001	5.506096e-002
5.696304854113869e-011	9.452511e-001	5.504605e-002
5.746304854115249e-011	9.452637e-001	5.503125e-002
5.796304854116630e-011	9.452764e-001	5.501657e-002
5.846304854118010e-011	9.452891e-001	5.500197e-002
5.896304854119390e-011	9.453020e-001	5.498747e-002
5.946304854120770e-011	9.453149e-001	5.497304e-002
5.996304854122150e-011	9.453279e-001	5.495869e-002
6.046304854123531e-011	9.453409e-001	5.494440e-002
6.096304854124911e-011	9.453540e-001	5.493017e-002
6.146304854126291e-011	9.453672e-001	5.491600e-002
6.196304854127671e-011	9.453803e-001	5.490187e-002
6.246304854129051e-011	9.453936e-001	5.488779e-002
6.296304854130431e-011	9.454069e-001	5.487375e-002
6.346304854131812e-011	9.454201e-001	5.485975e-002
6.396304854133192e-011	9.454334e-001	5.484578e-002
6.446304854134572e-011	9.454468e-001	5.483184e-002
6.496304854135952e-011	9.454601e-001	5.481793e-002
6.546304854137332e-011	9.454736e-001	5.480405e-002
6.596304854138713e-011	9.454870e-001	5.479019e-002
6.646304854140093e-011	9.455004e-001	5.477635e-002
6.696304854141473e-011	9.455138e-001	5.476253e-002
6.746304854142853e-011	9.455273e-001	5.474874e-002
6.796304854144233e-011	9.455407e-001	5.473496e-002
6.846304854145614e-011	9.455541e-001	5.472119e-002
6.896304854146994e-011	9.455676e-001	5.470744e-002
6.946304854148374e-011	9.455811e-001	5.469371e-002
6.996304854149754e-011	9.455945e-001	5.467998e-002
7.046304854151134e-011	9.456081e-001	5.466627e-002
7.096304854152514e-011	9.456216e-001	5.465256e-002
7.146304854153895e-011	9.456350e-001	5.463887e-002
7.196304854155275e-011	9.456486e-001	5.462519e-002
7.246304854156655e-011	9.456620e-001	5.461152e-002
7.296304854158035e-011	9.456756e-001	5.459785e-002
7.346304854159415e-011	9.456890e-001	5.458420e-002
7.396304854160796e-011	9.457026e-001	5.457055e-002
7.446304854162176e-011	9.457160e-001	5.455691e-002
7.496304854163556e-011	9.457296e-001	5.454327e-002
7.546304854164936e-011	9.457431e-001	5.452964e-002
7.596304854166316e-011	9.457566e-001	5.451602e-002
7.646304854167696e-011	9.457701e-001	5.450240e-002
7.696304854169077e-011	9.457836e-001	5.448879e-002
7.746304854170457e-011	9.457971e-001	5.447518e-002
7.796304854171837e-011	9.458106e-001	5.446158e-002
7.846304854173217e-011	9.458240e-001	5.444799e-002
7.896304854174597e-011	9.458376e-001	5.443440e-002
7.946304854175978e-011	9.458510e-001	5.442081e-002
7.996304854177358e-011	9.458646e-001	5.440723e-002
8.046304854178738e-011	9.458780e-001	5.439366e-002
8.096304854180118e-011	9.458915e-001	5.438008e-002
8.146304854181498e-011	9.459050e-001	5.436651e-002
8.196304854182879e-011	9.459184e-001	5.435295e-002
8.246304854184259e-011	9.459320e-001	5.433939e-002
8.296304854185639e-011	9.459454e-001	5.432584e-002
8.346304854187019e-011	9.459589e-001	5.431229e-002
8.396304854188399e-011	9.459724e-001	5.429874e-002
8.446304854189779e-011	9.459859e-001	5.428519e-002
8.496304854191160e-011	9.459993e-001	5.427165e-002
8.546304854192540e-011	9.460127e-001	5.425812e-002
8.596304854193920e-011	9.460262e-001	5.424459e-002
8.646304854195300e-011	9.460397e-001	5.423106e-002
8.696304854196680e-011	9.460531e-001	5.421753e-002
8.746304854198061e-011	9.460666e-001	5.420401e-002
8.796304854199441e-011	9.460800e-001	5.419049e-002
8.846304854200821e-011	9.460934e-001	5.417698e-002
8.896304854202201e-011	9.461069e-001	5.416347e-002
8.946304854203581e-011	9.461203e-001	5.414996e-002
8.996304854204961e-011	9.461338e-001	5.413646e-002
9.046304854206342e-011	9.461472e-001	5.412295e-002
9.096304854207722e-011	9.461606e-001	5.410946e-002
9.146304854209102e-011	9.461740e-001	5.409596e-002
9.196304854210482e-011	9.461874e-001	5.408248e-002
9.246304854211862e-011	9.462009e-001	5.406899e-002
9.296304854213243e-011	9.462143e-001	5.405551e-002
9.346304854214623e-011	9.462277e-001	5.404203e-002
9.396304854216003e-011	9.462411e-001	5.402856e-002
9.446304854217383e-011	9.462545e-001	5.401508e-002
9.496304854218763e-011	9.462679e-001	5.400161e-002
9.546304854220143e-011	9.462813e-001	5.398815e-002
9.596304854221524e-011	9.462947e-001	5.397468e-002
9.646304854222904e-011	9.463081e-001	5.396122e-002
9.696304854224284e-011	9.463215e-001	5.394777e-002
9.746304854225664e-011	9.463349e-001	5.393432e-002
9.796304854227044e-011	9.463482e-001	5.392087e-002
9.846304854228425e-011	9.463616e-001	5.390742e-002
9.896304854229805e-011	9.463750e-001	5.389398e-002
9.946304854231185e-011	9.463884e-001	5.388055e-002
9.996304854232565e-011	9.464017e-001	5.386711e-002
1.004630485423395e-010	9.464151e-001	5.385368e-002
1.009630485423533e-010	9.464285e-001	5.384025e-002
1.014630485423671e-010	9.464418e-001	5.382683e-002
1.019630485423809e-010	9.464552e-001	5.381341e-002
1.024630485423947e-010	9.464685e-001	5.379999e-002
1.029630485424085e-010	9.464819e-001	5.378657e-002
1.034630485424223e-010	9.464952e-001	5.377316e-002
1.039630485424361e-010	9.465086e-001	5.375975e-002
1.044630485424499e-010	9.465219e-001	5.374635e-002
1.049630485424637e-010	9.465352e-001	5.373295e-002
1.054630485424775e-010	9.465486e-001	5.371955e-002
1.059630485424913e-010	9.465619e-001	5.370615e-002
1.064630485425051e-010	9.465752e-001	5.369276e-002
1.069630485425189e-010	9.465885e-001	5.367937e-002
1.074630485425327e-010	9.466019e-001	5.366599e-002
1.079630485425465e-010	9.466152e-001	5.365261e-002
1.084630485425603e-010	9.466285e-001	5.363923e-002
1.089630485425741e-010	9.466418e-001	5.362586e-002
1.094630485425879e-010	9.466551e-001	5.361249e-002
1.099630485426017e-010	9.466684e-001	5.359912e-002
1.104630485426155e-010	9.466817e-001	5.358575e-002
1.109630485426293e-010	9.466950e-001	5.357239e-002
1.114630485426431e-010	9.467083e-001	5.355903e-002
1.119630485426569e-010	9.467216e-001	5.354568e-002
1.124630485426707e-010	9.467348e-001	5.353232e-002
1.129630485426845e-010	9.467481e-001	5.351898e-002
1.134630485426983e-010	9.467614e-001	5.350563e-002
1.139630485427121e-010	9.467747e-001	5.349229e-002
1.144630485427259e-010	9.467880e-001	5.347896e-002
1.149630485427397e-010	9.468012e-001	5.346562e-002
1.154630485427535e-010	9.468145e-001	5.345229e-002
1.159630485427673e-010	9.468278e-001	5.343896e-002
1.164630485427811e-010	9.468410e-001	5.342564e-002
1.169630485427949e-010	9.468543e-001	5.341231e-002
1.174630485428087e-010	9.468675e-001	5.339900e-002
1.179630485428225e-010	9.468808e-001	5.338568e-002
1.184630485428363e-010	9.468940e-001	5.337237e-002
1.189630485428501e-010	9.469072e-001	5.335906e-002
1.194630485428639e-010	9.469205e-001	5.334576e-002
1.199630485428777e-010	9.469337e-001	5.333246e-002
1.204630485428915e-010	9.469470e-001	5.331916e-002
1.209630485429053e-010	9.469602e-001	5.330586e-002
1.214630485429191e-010	9.469734e-001	5.329257e-002
1.219630485429329e-010	9.469866e-001	5.327928e-002
1.224630485429467e-010	9.469998e-001	5.326600e-002
1.229630485429605e-010	9.470131e-001	5.325272e-002
1.234630485429743e-010	9.470263e-001	5.323944e-002
1.239630485429881e-010	9.470395e-001	5.322617e-002
1.244630485430019e-010	9.470527e-001	5.321289e-002
1.249630485430157e-010	9.470659e-001	5.319963e-002
1.254630485430296e-010	9.470791e-001	5.318636e-002
1.259630485430434e-010	9.470923e-001	5.317310e-002
1.264630485430572e-010	9.471055e-001	5.315984e-002
1.269630485430710e-010	9.471186e-001	5.314659e-002
1.274630485430848e-010	9.471319e-001	5.313333e-002
1.279630485430986e-010	9.471450e-001	5.312008e-002
1.284630485431124e-010	9.471582e-001	5.310684e-002
1.289630485431262e-010	9.471714e-001	5.309360e-002
1.294630485431400e-010	9.471846e-001	5.308036e-002
1.299630485431538e-010	9.471977e-001	5.306712e-002
1.304630485431676e-010	9.472109e-001	5.305389e-002
1.309630485431814e-010	9.472241e-001	5.304066e-002
1.314630485431952e-010	9.472372e-001	5.302744e-002
1.319630485432090e-010	9.472504e-001	5.301422e-002
1.324630485432228e-010	9.472635e-001	5.300100e-002
1.329630485432366e-010	9.472767e-001	5.298778e-002
1.334630485432504e-010	9.472898e-001	5.297457e-002
1.339630485432642e-010	9.473030e-001	5.296136e-002
1.344630485432780e-010	9.473161e-001	5.294815e-002
1.349630485432918e-010	9.473292e-001	5.293495e-002
1.354630485433056e-010	9.473424e-001	5.292175e-002
1.359630485433194e-010	9.473555e-001	5.290856e-002
1.364630485433332e-010	9.473686e-001	5.289537e-002
1.369630485433470e-010	9.473817e-001	5.288218e-002
1.374630485433608e-010	9.473949e-001	5.286899e-002
1.379630485433746e-010	9.474080e-001	5.285581e-002
1.384630485433884e-010	9.474211e-001	5.284263e-002
1.389630485434022e-010	9.474342e-001	5.282945e-002
1.394630485434160e-010	9.474473e-001	5.281628e-002
1.399630485434298e-010	9.474604e-001	5.280311e-002
1.404630485434436e-010	9.474735e-001	5.278995e-002
1.409630485434574e-010	9.474866e-001	5.277678e-002
1.414630485434712e-010	9.474997e-001	5.276362e-002
1.419630485434850e-010	9.475128e-001	5.275047e-002
1.424630485434988e-010	9.475259e-001	5.273731e-002
1.429630485435126e-010	9.475390e-001	5.272416e-002
1.434630485435264e-010	9.475521e-001	5.271102e-002
1.439630485435402e-010	9.475651e-001	5.269787e-002
1.444630485435540e-010	9.475782e-001	5.268473e-002
1.449630485435678e-010	9.475913e-001	5.267160e-002
1.454630485435816e-010	9.476044e-001	5.265846e-002
1.459630485435954e-010	9.476174e-001	5.264533e-002
1.464630485436092e-010	9.476305e-001	5.263221e-002
1.469630485436230e-010	9.476435e-001	5.261908e-002
1.474630485436368e-010	9.476566e-001	5.260596e-002
1.479630485436506e-010	9.476696e-001	5.259285e-002
1.484630485436644e-010	9.476827e-001	5.257973e-002
1.489630485436782e-010	9.476957e-001	5.256662e-002
1.494630485436920e-010	9.477088e-001	5.255352e-002
1.499630485437058e-010	9.477218e-001	5.254041e-002
1.504630485437196e-010	9.477348e-001	5.252731e-002
1.509630485437334e-010	9.477479e-001	5.251421e-002
1.514630485437472e-010	9.477609e-001	5.250112e-002
1.519630485437610e-010	9.477739e-001	5.248803e-002
1.524630485437749e-010	9.477870e-001	5.247494e-002
1.529630485437887e-010	9.478000e-001	5.246186e-002
1.534630485438025e-010	9.478130e-001	5.244878e-002
1.539630485438163e-010	9.478260e-001	5.243570e-002
1.544630485438301e-010	9.478390e-001	5.242262e-002
1.549630485438439e-010	9.478520e-001	5.240955e-002
1.554630485438577e-010	9.478650e-001	5.239648e-002
1.559630485438715e-010	9.478780e-001	5.238342e-002
1.564630485438853e-010	9.478910e-001	5.237036e-002
1.569630485438991e-010	9.479040e-001	5.235730e-002
1.574630485439129e-010	9.479170e-001	5.234425e-002
1.579630485439267e-010	9.479300e-001	5.233119e-002
